Script started on Fri 25 Mar 2016 07:06:17 AM UTC
root@beaglebone:/home/debian# ./w/openocd/src/openocd -d 9 -f p.cfg -f target/stm32f1x.cfg
Open On-Chip Debugger 0.10.0-dev-00247-g73b676c-dirty (2016-03-19-09:56)
Licensed under GNU GPL v2
For bug reports, read
	http://openocd.org/doc/doxygen/bugs.html
User : 13 37 command.c:546 command_print(): debug_level: 3
Debug: 14 38 options.c:98 add_default_dirs(): bindir=/usr/local/bin
Debug: 15 40 options.c:99 add_default_dirs(): pkgdatadir=/usr/local/share/openocd
Debug: 16 40 options.c:100 add_default_dirs(): run_prefix=
Debug: 17 41 configuration.c:44 add_script_search_dir(): adding /root/.openocd
Debug: 18 41 configuration.c:44 add_script_search_dir(): adding /usr/local/share/openocd/site
Debug: 19 43 configuration.c:44 add_script_search_dir(): adding /usr/local/share/openocd/scripts
Debug: 20 45 configuration.c:84 find_file(): found p.cfg
Debug: 21 47 command.c:145 script_debug(): command - ocd_command ocd_command type ocd_interface bbg-swd
Debug: 22 50 command.c:145 script_debug(): command - interface ocd_interface bbg-swd
Debug: 24 51 command.c:366 register_command_handler(): registering 'ocd_bbg_swd_hello'...
Info : 25 52 transport.c:118 allow_transports(): only one transport option; autoselect 'swd'
Debug: 26 53 command.c:325 command_new(): BUG: command 'swd' does not have the '.usage' field filled out
Debug: 27 53 command.c:366 register_command_handler(): registering 'ocd_swd'...
Debug: 28 55 command.c:366 register_command_handler(): registering 'ocd_swd'...
Debug: 29 56 command.c:145 script_debug(): command - ocd_command ocd_command type ocd_transport select swd
Debug: 30 58 command.c:145 script_debug(): command - ocd_transport ocd_transport select swd
Warn : 31 59 transport.c:298 jim_transport_select(): Transport "swd" was already selected
User : 32 60 command.c:677 command_run_line(): swdUser : 33 60 command.c:679 command_run_line(): 
Debug: 34 62 configuration.c:84 find_file(): found /usr/local/share/openocd/scripts/target/stm32f1x.cfg
Debug: 35 65 configuration.c:84 find_file(): found /usr/local/share/openocd/scripts/target/swj-dp.tcl
Debug: 36 68 command.c:145 script_debug(): command - ocd_command ocd_command type ocd_transport select
Debug: 37 70 command.c:145 script_debug(): command - ocd_transport ocd_transport select
Debug: 38 72 configuration.c:84 find_file(): found /usr/local/share/openocd/scripts/mem_helper.tcl
Debug: 39 75 command.c:145 script_debug(): command - ocd_command ocd_command type ocd_add_usage_text mrw address
Debug: 40 76 command.c:145 script_debug(): command - add_usage_text ocd_add_usage_text mrw address
Debug: 42 78 command.c:1100 help_add_command(): added 'mrw' help text
Debug: 43 80 command.c:145 script_debug(): command - ocd_command ocd_command type ocd_add_help_text mrw Returns value of word in memory.
Debug: 44 82 command.c:145 script_debug(): command - add_help_text ocd_add_help_text mrw Returns value of word in memory.
Debug: 46 84 command.c:1113 help_add_command(): added 'mrw' help text
Debug: 47 85 command.c:145 script_debug(): command - ocd_command ocd_command type ocd_add_usage_text mmw address setbits clearbits
Debug: 48 86 command.c:145 script_debug(): command - add_usage_text ocd_add_usage_text mmw address setbits clearbits
Debug: 50 87 command.c:1100 help_add_command(): added 'mmw' help text
Debug: 51 89 command.c:145 script_debug(): command - ocd_command ocd_command type ocd_add_help_text mmw Modify word in memory. new_val = (old_val & ~clearbits) | setbits;
Debug: 52 90 command.c:145 script_debug(): command - add_help_text ocd_add_help_text mmw Modify word in memory. new_val = (old_val & ~clearbits) | setbits;
Debug: 54 91 command.c:1113 help_add_command(): added 'mmw' help text
Debug: 55 93 command.c:145 script_debug(): command - ocd_command ocd_command type ocd_transport select
Debug: 56 94 command.c:145 script_debug(): command - ocd_transport ocd_transport select
Debug: 57 96 command.c:145 script_debug(): command - ocd_command ocd_command type ocd_transport select
Debug: 58 98 command.c:145 script_debug(): command - ocd_transport ocd_transport select
Debug: 59 100 command.c:145 script_debug(): command - ocd_command ocd_command type ocd_transport select
Debug: 60 102 command.c:145 script_debug(): command - ocd_transport ocd_transport select
Debug: 61 103 command.c:145 script_debug(): command - ocd_command ocd_command type ocd_transport select
Debug: 62 105 command.c:145 script_debug(): command - ocd_transport ocd_transport select
Debug: 63 106 command.c:145 script_debug(): command - ocd_command ocd_command type ocd_swd newdap stm32f1x cpu -irlen 4 -ircapture 0x1 -irmask 0xf -expected-id 0x1ba01477
Debug: 64 108 command.c:145 script_debug(): command - ocd_swd ocd_swd newdap stm32f1x cpu -irlen 4 -ircapture 0x1 -irmask 0xf -expected-id 0x1ba01477
Debug: 65 110 tcl.c:551 jim_newtap_cmd(): Creating New Tap, Chip: stm32f1x, Tap: cpu, Dotted: stm32f1x.cpu, 8 params
Debug: 66 111 core.c:1306 jtag_tap_init(): Created Tap: stm32f1x.cpu @ abs position 0, irlen 0, capture: 0x0 mask: 0x0
Debug: 67 112 command.c:145 script_debug(): command - ocd_command ocd_command type ocd_transport select
Debug: 68 114 command.c:145 script_debug(): command - ocd_transport ocd_transport select
Debug: 69 116 command.c:145 script_debug(): command - ocd_command ocd_command type ocd_target create stm32f1x.cpu cortex_m -endian little -chain-position stm32f1x.cpu
Debug: 70 118 command.c:145 script_debug(): command - ocd_target ocd_target create stm32f1x.cpu cortex_m -endian little -chain-position stm32f1x.cpu
Debug: 71 119 target.c:1883 target_free_all_working_areas_restore(): freeing all working areas
Debug: 72 120 command.c:366 register_command_handler(): registering 'ocd_arm'...
Debug: 73 121 command.c:366 register_command_handler(): registering 'ocd_arm'...
Debug: 74 122 command.c:366 register_command_handler(): registering 'ocd_arm'...
Debug: 75 123 command.c:366 register_command_handler(): registering 'ocd_arm'...
Debug: 76 123 command.c:366 register_command_handler(): registering 'ocd_arm'...
Debug: 77 125 command.c:366 register_command_handler(): registering 'ocd_arm'...
Debug: 78 125 command.c:366 register_command_handler(): registering 'ocd_dap'...
Debug: 79 126 command.c:366 register_command_handler(): registering 'ocd_dap'...
Debug: 80 127 command.c:366 register_command_handler(): registering 'ocd_dap'...
Debug: 81 128 command.c:366 register_command_handler(): registering 'ocd_dap'...
Debug: 82 129 command.c:366 register_command_handler(): registering 'ocd_dap'...
Debug: 83 130 command.c:366 register_command_handler(): registering 'ocd_dap'...
Debug: 84 131 command.c:366 register_command_handler(): registering 'ocd_dap'...
Debug: 85 132 command.c:366 register_command_handler(): registering 'ocd_tpiu'...
Debug: 86 133 command.c:366 register_command_handler(): registering 'ocd_itm'...
Debug: 87 134 command.c:366 register_command_handler(): registering 'ocd_itm'...
Debug: 88 135 command.c:366 register_command_handler(): registering 'ocd_cortex_m'...
Debug: 89 135 command.c:366 register_command_handler(): registering 'ocd_cortex_m'...
Debug: 90 136 command.c:366 register_command_handler(): registering 'ocd_cortex_m'...
Debug: 91 139 command.c:366 register_command_handler(): registering 'ocd_stm32f1x.cpu'...
Debug: 92 140 command.c:366 register_command_handler(): registering 'ocd_stm32f1x.cpu'...
Debug: 93 142 command.c:366 register_command_handler(): registering 'ocd_stm32f1x.cpu'...
Debug: 94 144 command.c:366 register_command_handler(): registering 'ocd_stm32f1x.cpu'...
Debug: 95 144 command.c:366 register_command_handler(): registering 'ocd_stm32f1x.cpu'...
Debug: 96 145 command.c:366 register_command_handler(): registering 'ocd_stm32f1x.cpu'...
Debug: 97 146 command.c:366 register_command_handler(): registering 'ocd_stm32f1x.cpu'...
Debug: 98 147 command.c:366 register_command_handler(): registering 'ocd_stm32f1x.cpu'...
Debug: 99 148 command.c:366 register_command_handler(): registering 'ocd_stm32f1x.cpu'...
Debug: 100 150 command.c:366 register_command_handler(): registering 'ocd_stm32f1x.cpu'...
Debug: 101 151 command.c:366 register_command_handler(): registering 'ocd_stm32f1x.cpu'...
Debug: 102 152 command.c:366 register_command_handler(): registering 'ocd_stm32f1x.cpu'...
Debug: 103 153 command.c:366 register_command_handler(): registering 'ocd_stm32f1x.cpu'...
Debug: 104 153 command.c:366 register_command_handler(): registering 'ocd_stm32f1x.cpu'...
Debug: 105 155 command.c:366 register_command_handler(): registering 'ocd_stm32f1x.cpu'...
Debug: 106 156 command.c:366 register_command_handler(): registering 'ocd_stm32f1x.cpu'...
Debug: 107 157 command.c:366 register_command_handler(): registering 'ocd_stm32f1x.cpu'...
Debug: 108 158 command.c:366 register_command_handler(): registering 'ocd_stm32f1x.cpu'...
Debug: 109 159 command.c:366 register_command_handler(): registering 'ocd_stm32f1x.cpu'...
Debug: 110 160 command.c:366 register_command_handler(): registering 'ocd_stm32f1x.cpu'...
Debug: 111 161 command.c:366 register_command_handler(): registering 'ocd_stm32f1x.cpu'...
Debug: 112 162 command.c:366 register_command_handler(): registering 'ocd_stm32f1x.cpu'...
Debug: 113 163 command.c:366 register_command_handler(): registering 'ocd_stm32f1x.cpu'...
Debug: 114 164 command.c:366 register_command_handler(): registering 'ocd_stm32f1x.cpu'...
Debug: 115 165 command.c:366 register_command_handler(): registering 'ocd_stm32f1x.cpu'...
Debug: 116 165 command.c:366 register_command_handler(): registering 'ocd_stm32f1x.cpu'...
Debug: 117 166 command.c:366 register_command_handler(): registering 'ocd_stm32f1x.cpu'...
Debug: 118 167 command.c:366 register_command_handler(): registering 'ocd_stm32f1x.cpu'...
Debug: 119 168 command.c:366 register_command_handler(): registering 'ocd_stm32f1x.cpu'...
Debug: 120 169 command.c:366 register_command_handler(): registering 'ocd_stm32f1x.cpu'...
Debug: 121 170 command.c:366 register_command_handler(): registering 'ocd_stm32f1x.cpu'...
Debug: 122 171 command.c:366 register_command_handler(): registering 'ocd_stm32f1x.cpu'...
Debug: 123 172 command.c:366 register_command_handler(): registering 'ocd_stm32f1x.cpu'...
Debug: 124 174 command.c:366 register_command_handler(): registering 'ocd_stm32f1x.cpu'...
Debug: 125 174 command.c:366 register_command_handler(): registering 'ocd_stm32f1x.cpu'...
Debug: 126 175 command.c:366 register_command_handler(): registering 'ocd_stm32f1x.cpu'...
Debug: 127 177 command.c:366 register_command_handler(): registering 'ocd_stm32f1x.cpu'...
Debug: 128 177 command.c:366 register_command_handler(): registering 'ocd_stm32f1x.cpu'...
Debug: 129 178 command.c:366 register_command_handler(): registering 'ocd_stm32f1x.cpu'...
Debug: 130 179 command.c:366 register_command_handler(): registering 'ocd_stm32f1x.cpu'...
Debug: 131 181 command.c:366 register_command_handler(): registering 'ocd_stm32f1x.cpu'...
Debug: 132 181 command.c:366 register_command_handler(): registering 'ocd_stm32f1x.cpu'...
Debug: 133 182 command.c:366 register_command_handler(): registering 'ocd_stm32f1x.cpu'...
Debug: 134 184 command.c:145 script_debug(): command - ocd_command ocd_command type ocd_stm32f1x.cpu configure -work-area-phys 0x20000000 -work-area-size 0x1000 -work-area-backup 0
Debug: 135 186 command.c:145 script_debug(): command - ocd_stm32f1x.cpu ocd_stm32f1x.cpu configure -work-area-phys 0x20000000 -work-area-size 0x1000 -work-area-backup 0
Debug: 136 187 target.c:1883 target_free_all_working_areas_restore(): freeing all working areas
Debug: 137 188 target.c:1883 target_free_all_working_areas_restore(): freeing all working areas
Debug: 138 189 target.c:1883 target_free_all_working_areas_restore(): freeing all working areas
Debug: 139 190 command.c:145 script_debug(): command - ocd_command ocd_command type ocd_flash bank stm32f1x.flash stm32f1x 0x08000000 0 0 0 stm32f1x.cpu
Debug: 140 192 command.c:145 script_debug(): command - ocd_flash ocd_flash bank stm32f1x.flash stm32f1x 0x08000000 0 0 0 stm32f1x.cpu
Debug: 142 193 command.c:366 register_command_handler(): registering 'ocd_stm32f1x'...
Debug: 143 195 command.c:366 register_command_handler(): registering 'ocd_stm32f1x'...
Debug: 144 196 command.c:366 register_command_handler(): registering 'ocd_stm32f1x'...
Debug: 145 198 command.c:366 register_command_handler(): registering 'ocd_stm32f1x'...
Debug: 146 198 command.c:366 register_command_handler(): registering 'ocd_stm32f1x'...
Debug: 147 200 tcl.c:1001 handle_flash_bank_command(): 'stm32f1x' driver usage field missing
Debug: 148 202 command.c:145 script_debug(): command - ocd_command ocd_command type ocd_adapter_khz 1000
Debug: 149 203 command.c:145 script_debug(): command - adapter_khz ocd_adapter_khz 1000
Debug: 151 204 core.c:1633 jtag_config_khz(): handle jtag khz
Debug: 152 205 core.c:1600 adapter_khz_to_speed(): convert khz to interface specific speed value
Debug: 153 206 core.c:1600 adapter_khz_to_speed(): convert khz to interface specific speed value
User : 154 206 command.c:546 command_print(): adapter speed: 1000 kHz
Debug: 155 207 command.c:145 script_debug(): command - ocd_command ocd_command type ocd_adapter_nsrst_delay 100
Debug: 156 208 command.c:145 script_debug(): command - adapter_nsrst_delay ocd_adapter_nsrst_delay 100
User : 158 209 command.c:546 command_print(): adapter_nsrst_delay: 100
Debug: 159 211 command.c:145 script_debug(): command - ocd_command ocd_command type ocd_transport select
Debug: 160 212 command.c:145 script_debug(): command - ocd_transport ocd_transport select
Debug: 161 213 command.c:145 script_debug(): command - ocd_command ocd_command type ocd_reset_config srst_nogate
Debug: 162 215 command.c:145 script_debug(): command - reset_config ocd_reset_config srst_nogate
User : 164 216 command.c:546 command_print(): none separate
Debug: 165 217 command.c:145 script_debug(): command - ocd_command ocd_command type ocd_transport select
Debug: 166 218 command.c:145 script_debug(): command - ocd_transport ocd_transport select
Debug: 167 219 command.c:145 script_debug(): command - ocd_command ocd_command type ocd_cortex_m reset_config sysresetreq
Debug: 168 221 command.c:145 script_debug(): command - ocd_cortex_m ocd_cortex_m reset_config sysresetreq
User : 170 222 command.c:546 command_print(): cortex_m reset_config sysresetreq
Debug: 171 224 command.c:145 script_debug(): command - ocd_command ocd_command type ocd_stm32f1x.cpu configure -event examine-end 
	# DBGMCU_CR |= DBG_WWDG_STOP | DBG_IWDG_STOP |
	#              DBG_STANDBY | DBG_STOP | DBG_SLEEP
	mmw 0xE0042004 0x00000307 0

Debug: 172 227 command.c:145 script_debug(): command - ocd_stm32f1x.cpu ocd_stm32f1x.cpu configure -event examine-end 
	# DBGMCU_CR |= DBG_WWDG_STOP | DBG_IWDG_STOP |
	#              DBG_STANDBY | DBG_STOP | DBG_SLEEP
	mmw 0xE0042004 0x00000307 0

Debug: 173 230 command.c:145 script_debug(): command - ocd_command ocd_command type ocd_stm32f1x.cpu configure -event trace-config 
	# Set TRACE_IOEN; TRACE_MODE is set to async; when using sync
	# change this value accordingly to configure trace pins
	# assignment
	mmw 0xE0042004 0x00000020 0

Debug: 174 235 command.c:145 script_debug(): command - ocd_stm32f1x.cpu ocd_stm32f1x.cpu configure -event trace-config 
	# Set TRACE_IOEN; TRACE_MODE is set to async; when using sync
	# change this value accordingly to configure trace pins
	# assignment
	mmw 0xE0042004 0x00000020 0

Debug: 175 241 command.c:145 script_debug(): command - ocd_command ocd_command type ocd_init
Debug: 176 242 command.c:145 script_debug(): command - init ocd_init
Debug: 178 244 command.c:145 script_debug(): command - ocd_command ocd_command type ocd_target init
Debug: 179 246 command.c:145 script_debug(): command - ocd_target ocd_target init
Debug: 181 247 command.c:145 script_debug(): command - ocd_command ocd_command type ocd_target names
Debug: 182 249 command.c:145 script_debug(): command - ocd_target ocd_target names
Debug: 183 250 command.c:145 script_debug(): command - ocd_command ocd_command type ocd_stm32f1x.cpu cget -event gdb-flash-erase-start
Debug: 184 252 command.c:145 script_debug(): command - ocd_stm32f1x.cpu ocd_stm32f1x.cpu cget -event gdb-flash-erase-start
Debug: 185 254 command.c:145 script_debug(): command - ocd_command ocd_command type ocd_stm32f1x.cpu configure -event gdb-flash-erase-start reset init
Debug: 186 255 command.c:145 script_debug(): command - ocd_stm32f1x.cpu ocd_stm32f1x.cpu configure -event gdb-flash-erase-start reset init
Debug: 187 257 command.c:145 script_debug(): command - ocd_command ocd_command type ocd_stm32f1x.cpu cget -event gdb-flash-write-end
Debug: 188 258 command.c:145 script_debug(): command - ocd_stm32f1x.cpu ocd_stm32f1x.cpu cget -event gdb-flash-write-end
Debug: 189 260 command.c:145 script_debug(): command - ocd_command ocd_command type ocd_stm32f1x.cpu configure -event gdb-flash-write-end reset halt
Debug: 190 261 command.c:145 script_debug(): command - ocd_stm32f1x.cpu ocd_stm32f1x.cpu configure -event gdb-flash-write-end reset halt
Debug: 191 265 target.c:1308 handle_target_init_command(): Initializing targets...
Debug: 192 266 command.c:366 register_command_handler(): registering 'ocd_target_request'...
Debug: 193 266 command.c:366 register_command_handler(): registering 'ocd_trace'...
Debug: 194 267 command.c:366 register_command_handler(): registering 'ocd_trace'...
Debug: 195 267 command.c:366 register_command_handler(): registering 'ocd_fast_load_image'...
Debug: 196 268 command.c:366 register_command_handler(): registering 'ocd_fast_load'...
Debug: 197 268 command.c:366 register_command_handler(): registering 'ocd_profile'...
Debug: 198 268 command.c:366 register_command_handler(): registering 'ocd_virt2phys'...
Debug: 199 269 command.c:366 register_command_handler(): registering 'ocd_reg'...
Debug: 200 269 command.c:366 register_command_handler(): registering 'ocd_poll'...
Debug: 201 270 command.c:366 register_command_handler(): registering 'ocd_wait_halt'...
Debug: 202 270 command.c:366 register_command_handler(): registering 'ocd_halt'...
Debug: 203 270 command.c:366 register_command_handler(): registering 'ocd_resume'...
Debug: 204 271 command.c:366 register_command_handler(): registering 'ocd_reset'...
Debug: 205 271 command.c:366 register_command_handler(): registering 'ocd_soft_reset_halt'...
Debug: 206 272 command.c:366 register_command_handler(): registering 'ocd_step'...
Debug: 207 272 command.c:366 register_command_handler(): registering 'ocd_mdw'...
Debug: 208 273 command.c:366 register_command_handler(): registering 'ocd_mdh'...
Debug: 209 273 command.c:366 register_command_handler(): registering 'ocd_mdb'...
Debug: 210 273 command.c:366 register_command_handler(): registering 'ocd_mww'...
Debug: 211 274 command.c:366 register_command_handler(): registering 'ocd_mwh'...
Debug: 212 274 command.c:366 register_command_handler(): registering 'ocd_mwb'...
Debug: 213 275 command.c:366 register_command_handler(): registering 'ocd_bp'...
Debug: 214 275 command.c:366 register_command_handler(): registering 'ocd_rbp'...
Debug: 215 276 command.c:366 register_command_handler(): registering 'ocd_wp'...
Debug: 216 276 command.c:366 register_command_handler(): registering 'ocd_rwp'...
Debug: 217 276 command.c:366 register_command_handler(): registering 'ocd_load_image'...
Debug: 218 277 command.c:366 register_command_handler(): registering 'ocd_dump_image'...
Debug: 219 277 command.c:366 register_command_handler(): registering 'ocd_verify_image'...
Debug: 220 278 command.c:366 register_command_handler(): registering 'ocd_test_image'...
Debug: 221 278 command.c:366 register_command_handler(): registering 'ocd_reset_nag'...
Debug: 222 279 command.c:366 register_command_handler(): registering 'ocd_ps'...
Debug: 223 279 command.c:366 register_command_handler(): registering 'ocd_test_mem_access'...
Debug: 224 280 bbg-swd.c:97 bbg_swd_open(): bbg_swd_init
Debug: 225 281 bbg-swd.c:121 bbg_swd_open(): Executing PRU-SWU program on PRUSS
Info : 226 282 bbg-swd.c:169 bbg_swd_interface_init(): BBG-SWD: Interface ready
Debug: 227 283 core.c:1600 adapter_khz_to_speed(): convert khz to interface specific speed value
Debug: 228 284 core.c:1603 adapter_khz_to_speed(): have interface set up
Debug: 229 284 core.c:1600 adapter_khz_to_speed(): convert khz to interface specific speed value
Debug: 230 285 core.c:1603 adapter_khz_to_speed(): have interface set up
Info : 231 285 core.c:1388 adapter_init(): clock speed 1000 kHz
Debug: 232 286 openocd.c:137 handle_init_command(): Debug Adapter init complete
Debug: 233 286 command.c:145 script_debug(): command - ocd_command ocd_command type ocd_transport init
Debug: 234 287 command.c:145 script_debug(): command - ocd_transport ocd_transport init
Debug: 236 287 transport.c:240 handle_transport_init(): handle_transport_init
Debug: 237 288 bbg-swd.c:217 bbg_swd_switch_seq(): bbg_swd_switch_seq
Debug: 238 288 bbg-swd.c:227 bbg_swd_switch_seq(): JTAG-to-SWD
Debug: 239 290 bbg-swd.c:80 pru_request_cmd(): BBD-SWD: command execution (00007605:ffffffff)
Debug: 240 293 bbg-swd.c:80 pru_request_cmd(): BBD-SWD: command execution (00000004:00000008)
Debug: 241 294 bbg-swd.c:256 bbg_swd_read_reg(): bbg_swd_read_reg
Debug: 242 296 bbg-swd.c:82 pru_request_cmd(): BBD-SWD: command execution (0000a506)
Debug: 243 297 bbg-swd.c:286 bbg_swd_read_reg(): OK DP read reg 0 = 1ba01477
Debug: 244 298 bbg-swd.c:316 bbg_swd_write_reg(): bbg_swd_write_reg
Debug: 245 300 bbg-swd.c:80 pru_request_cmd(): BBD-SWD: command execution (00008107:0000001e)
Debug: 246 301 bbg-swd.c:344 bbg_swd_write_reg(): OK DP write reg 0 = 0000001e
Debug: 247 301 bbg-swd.c:369 bbg_swd_run_queue(): bbg_swd_run_queue
Debug: 248 303 bbg-swd.c:80 pru_request_cmd(): BBD-SWD: command execution (00000004:00000008)
Debug: 249 304 bbg-swd.c:373 bbg_swd_run_queue(): SWD queue return value: 00
Info : 250 305 adi_v5_swd.c:127 swd_connect(): SWD IDCODE 0x1ba01477
Debug: 251 306 openocd.c:150 handle_init_command(): Examining targets...
Debug: 252 306 target.c:1501 target_call_event_callbacks(): target event 21 (examine-start)
Debug: 253 307 arm_adi_v5.c:605 dap_dp_init():  
Debug: 254 307 bbg-swd.c:316 bbg_swd_write_reg(): bbg_swd_write_reg
Debug: 255 309 bbg-swd.c:80 pru_request_cmd(): BBD-SWD: command execution (0000b107:00000000)
Debug: 256 310 bbg-swd.c:344 bbg_swd_write_reg(): OK DP write reg 8 = 00000000
Debug: 257 311 bbg-swd.c:256 bbg_swd_read_reg(): bbg_swd_read_reg
Debug: 258 313 bbg-swd.c:82 pru_request_cmd(): BBD-SWD: command execution (00008d06)
Debug: 259 314 bbg-swd.c:286 bbg_swd_read_reg(): OK DP read reg 4 = f0000041
Debug: 260 315 bbg-swd.c:316 bbg_swd_write_reg(): bbg_swd_write_reg
Debug: 261 316 bbg-swd.c:80 pru_request_cmd(): BBD-SWD: command execution (0001a907:00000020)
Debug: 262 318 bbg-swd.c:344 bbg_swd_write_reg(): OK DP write reg 4 = 00000020
Debug: 263 318 bbg-swd.c:256 bbg_swd_read_reg(): bbg_swd_read_reg
Debug: 264 320 bbg-swd.c:82 pru_request_cmd(): BBD-SWD: command execution (00008d06)
Debug: 265 321 bbg-swd.c:286 bbg_swd_read_reg(): OK DP read reg 4 = 00000040
Debug: 266 322 bbg-swd.c:316 bbg_swd_write_reg(): bbg_swd_write_reg
Debug: 267 324 bbg-swd.c:80 pru_request_cmd(): BBD-SWD: command execution (0000a907:50000000)
Debug: 268 325 bbg-swd.c:344 bbg_swd_write_reg(): OK DP write reg 4 = 50000000
Debug: 269 325 arm_adi_v5.c:638 dap_dp_init(): DAP: wait CDBGPWRUPACK
Debug: 270 326 arm_adi_v5.h:427 dap_dp_poll_register(): DAP: poll 4, mask 0x20000000, value 0x20000000
Debug: 271 326 bbg-swd.c:256 bbg_swd_read_reg(): bbg_swd_read_reg
Debug: 272 328 bbg-swd.c:82 pru_request_cmd(): BBD-SWD: command execution (00008d06)
Debug: 273 330 bbg-swd.c:286 bbg_swd_read_reg(): OK DP read reg 4 = f0000040
Debug: 274 330 bbg-swd.c:369 bbg_swd_run_queue(): bbg_swd_run_queue
Debug: 275 332 bbg-swd.c:80 pru_request_cmd(): BBD-SWD: command execution (00000004:00000008)
Debug: 276 333 bbg-swd.c:373 bbg_swd_run_queue(): SWD queue return value: 00
Debug: 277 334 arm_adi_v5.c:645 dap_dp_init(): DAP: wait CSYSPWRUPACK
Debug: 278 334 arm_adi_v5.h:427 dap_dp_poll_register(): DAP: poll 4, mask 0x80000000, value 0x80000000
Debug: 279 335 bbg-swd.c:256 bbg_swd_read_reg(): bbg_swd_read_reg
Debug: 280 337 bbg-swd.c:82 pru_request_cmd(): BBD-SWD: command execution (00008d06)
Debug: 281 338 bbg-swd.c:286 bbg_swd_read_reg(): OK DP read reg 4 = f0000040
Debug: 282 338 bbg-swd.c:369 bbg_swd_run_queue(): bbg_swd_run_queue
Debug: 283 340 bbg-swd.c:80 pru_request_cmd(): BBD-SWD: command execution (00000004:00000008)
Debug: 284 341 bbg-swd.c:373 bbg_swd_run_queue(): SWD queue return value: 00
Debug: 285 342 bbg-swd.c:256 bbg_swd_read_reg(): bbg_swd_read_reg
Debug: 286 344 bbg-swd.c:82 pru_request_cmd(): BBD-SWD: command execution (00008d06)
Debug: 287 345 bbg-swd.c:286 bbg_swd_read_reg(): OK DP read reg 4 = f0000040
Debug: 288 346 bbg-swd.c:316 bbg_swd_write_reg(): bbg_swd_write_reg
Debug: 289 348 bbg-swd.c:80 pru_request_cmd(): BBD-SWD: command execution (0001a907:50000001)
Debug: 290 349 bbg-swd.c:344 bbg_swd_write_reg(): OK DP write reg 4 = 50000001
Debug: 291 349 bbg-swd.c:256 bbg_swd_read_reg(): bbg_swd_read_reg
Debug: 292 351 bbg-swd.c:82 pru_request_cmd(): BBD-SWD: command execution (00008d06)
Debug: 293 352 bbg-swd.c:286 bbg_swd_read_reg(): OK DP read reg 4 = f0000041
Debug: 294 353 bbg-swd.c:369 bbg_swd_run_queue(): bbg_swd_run_queue
Debug: 295 355 bbg-swd.c:80 pru_request_cmd(): BBD-SWD: command execution (00000004:00000008)
Debug: 296 356 bbg-swd.c:373 bbg_swd_run_queue(): SWD queue return value: 00
Debug: 297 356 bbg-swd.c:316 bbg_swd_write_reg(): bbg_swd_write_reg
Debug: 298 358 bbg-swd.c:80 pru_request_cmd(): BBD-SWD: command execution (0000b107:000000f0)
Debug: 299 359 bbg-swd.c:344 bbg_swd_write_reg(): OK DP write reg 8 = 000000f0
Debug: 300 360 bbg-swd.c:256 bbg_swd_read_reg(): bbg_swd_read_reg
Debug: 301 362 bbg-swd.c:82 pru_request_cmd(): BBD-SWD: command execution (ff009f06)
Debug: 302 363 bbg-swd.c:286 bbg_swd_read_reg(): OK AP read reg C = 14770011
Debug: 303 363 bbg-swd.c:256 bbg_swd_read_reg(): bbg_swd_read_reg
Debug: 304 365 bbg-swd.c:82 pru_request_cmd(): BBD-SWD: command execution (0000bd06)
Debug: 305 366 bbg-swd.c:286 bbg_swd_read_reg(): OK DP read reg C = 14770011
Debug: 306 367 bbg-swd.c:369 bbg_swd_run_queue(): bbg_swd_run_queue
Debug: 307 369 bbg-swd.c:80 pru_request_cmd(): BBD-SWD: command execution (00000004:00000008)
Debug: 308 370 bbg-swd.c:373 bbg_swd_run_queue(): SWD queue return value: 00
Debug: 309 371 arm_adi_v5.c:789 dap_find_ap(): Found AHB-AP at AP index: 0 (IDR=0x14770011)
Debug: 310 371 bbg-swd.c:316 bbg_swd_write_reg(): bbg_swd_write_reg
Debug: 311 373 bbg-swd.c:80 pru_request_cmd(): BBD-SWD: command execution (0000b107:00000000)
Debug: 312 374 bbg-swd.c:344 bbg_swd_write_reg(): OK DP write reg 8 = 00000000
Debug: 313 375 bbg-swd.c:316 bbg_swd_write_reg(): bbg_swd_write_reg
Debug: 314 377 bbg-swd.c:80 pru_request_cmd(): BBD-SWD: command execution (2000a307:a2000020)
Debug: 315 378 bbg-swd.c:344 bbg_swd_write_reg(): OK AP write reg 0 = a2000020
Debug: 316 378 bbg-swd.c:316 bbg_swd_write_reg(): bbg_swd_write_reg
Debug: 317 380 bbg-swd.c:80 pru_request_cmd(): BBD-SWD: command execution (20008b07:00000000)
Debug: 318 381 bbg-swd.c:344 bbg_swd_write_reg(): OK AP write reg 4 = 00000000
Debug: 319 382 bbg-swd.c:256 bbg_swd_read_reg(): bbg_swd_read_reg
Debug: 320 384 bbg-swd.c:82 pru_request_cmd(): BBD-SWD: command execution (20008706)
Debug: 321 385 bbg-swd.c:286 bbg_swd_read_reg(): OK AP read reg 0 = 23000060
Debug: 322 385 bbg-swd.c:256 bbg_swd_read_reg(): bbg_swd_read_reg
Debug: 323 387 bbg-swd.c:82 pru_request_cmd(): BBD-SWD: command execution (0000bd06)
Debug: 324 388 bbg-swd.c:286 bbg_swd_read_reg(): OK DP read reg C = 23000060
Debug: 325 389 bbg-swd.c:316 bbg_swd_write_reg(): bbg_swd_write_reg
Debug: 326 391 bbg-swd.c:80 pru_request_cmd(): BBD-SWD: command execution (0000b107:000000f0)
Debug: 327 392 bbg-swd.c:344 bbg_swd_write_reg(): OK DP write reg 8 = 000000f0
Debug: 328 392 bbg-swd.c:256 bbg_swd_read_reg(): bbg_swd_read_reg
Debug: 329 394 bbg-swd.c:82 pru_request_cmd(): BBD-SWD: command execution (2000af06)
Debug: 330 396 bbg-swd.c:286 bbg_swd_read_reg(): OK AP read reg 4 = 00000000
Debug: 331 396 bbg-swd.c:256 bbg_swd_read_reg(): bbg_swd_read_reg
Debug: 332 398 bbg-swd.c:82 pru_request_cmd(): BBD-SWD: command execution (0000bd06)
Debug: 333 399 bbg-swd.c:286 bbg_swd_read_reg(): OK DP read reg C = 00000000
Debug: 334 400 bbg-swd.c:369 bbg_swd_run_queue(): bbg_swd_run_queue
Debug: 335 402 bbg-swd.c:80 pru_request_cmd(): BBD-SWD: command execution (00000004:00000008)
Debug: 336 403 bbg-swd.c:373 bbg_swd_run_queue(): SWD queue return value: 00
Debug: 337 404 arm_adi_v5.c:716 mem_ap_init(): MEM_AP Packed Transfers: enabled
Debug: 338 404 arm_adi_v5.c:727 mem_ap_init(): MEM_AP CFG: large data 0, long address 0, big-endian 0
Debug: 339 405 bbg-swd.c:316 bbg_swd_write_reg(): bbg_swd_write_reg
Debug: 340 407 bbg-swd.c:80 pru_request_cmd(): BBD-SWD: command execution (0000b107:00000000)
Debug: 341 408 bbg-swd.c:344 bbg_swd_write_reg(): OK DP write reg 8 = 00000000
Debug: 342 408 bbg-swd.c:316 bbg_swd_write_reg(): bbg_swd_write_reg
Debug: 343 410 bbg-swd.c:80 pru_request_cmd(): BBD-SWD: command execution (20018b07:e000ed00)
Debug: 344 411 bbg-swd.c:344 bbg_swd_write_reg(): OK AP write reg 4 = e000ed00
Debug: 345 412 bbg-swd.c:316 bbg_swd_write_reg(): bbg_swd_write_reg
Debug: 346 414 bbg-swd.c:80 pru_request_cmd(): BBD-SWD: command execution (2001a307:a2000022)
Debug: 347 415 bbg-swd.c:344 bbg_swd_write_reg(): OK AP write reg 0 = a2000022
Debug: 348 415 bbg-swd.c:256 bbg_swd_read_reg(): bbg_swd_read_reg
Debug: 349 417 bbg-swd.c:82 pru_request_cmd(): BBD-SWD: command execution (20009f06)
Debug: 350 418 bbg-swd.c:286 bbg_swd_read_reg(): OK AP read reg C = 01310102
Debug: 351 419 bbg-swd.c:256 bbg_swd_read_reg(): bbg_swd_read_reg
Debug: 352 421 bbg-swd.c:82 pru_request_cmd(): BBD-SWD: command execution (0000bd06)
Debug: 353 422 bbg-swd.c:286 bbg_swd_read_reg(): OK DP read reg C = 00000000
Debug: 354 423 bbg-swd.c:369 bbg_swd_run_queue(): bbg_swd_run_queue
Debug: 355 424 bbg-swd.c:80 pru_request_cmd(): BBD-SWD: command execution (00000004:00000008)
Debug: 356 426 bbg-swd.c:373 bbg_swd_run_queue(): SWD queue return value: 00
Debug: 357 426 target.c:2226 target_read_u32(): address: 0xe000ed00, value: 0x00000000
Debug: 358 427 cortex_m.c:1930 cortex_m_examine(): Cortex-M0 r0p0 processor detected
Debug: 359 427 cortex_m.c:1931 cortex_m_examine(): cpuid: 0x00000000
Debug: 360 428 target.c:2314 target_write_u32(): address: 0xe000edfc, value: 0x01000000
Debug: 361 428 bbg-swd.c:316 bbg_swd_write_reg(): bbg_swd_write_reg
Debug: 362 430 bbg-swd.c:80 pru_request_cmd(): BBD-SWD: command execution (20018b07:e000edfc)
Debug: 363 431 bbg-swd.c:344 bbg_swd_write_reg(): OK AP write reg 4 = e000edfc
Debug: 364 432 bbg-swd.c:316 bbg_swd_write_reg(): bbg_swd_write_reg
Debug: 365 434 bbg-swd.c:80 pru_request_cmd(): BBD-SWD: command execution (2001bb07:01000000)
Debug: 366 435 bbg-swd.c:344 bbg_swd_write_reg(): OK AP write reg C = 01000000
Debug: 367 435 bbg-swd.c:369 bbg_swd_run_queue(): bbg_swd_run_queue
Debug: 368 437 bbg-swd.c:80 pru_request_cmd(): BBD-SWD: command execution (00000004:00000008)
Debug: 369 438 bbg-swd.c:373 bbg_swd_run_queue(): SWD queue return value: 00
Debug: 370 439 bbg-swd.c:316 bbg_swd_write_reg(): bbg_swd_write_reg
Debug: 371 441 bbg-swd.c:80 pru_request_cmd(): BBD-SWD: command execution (20008b07:e0002000)
Debug: 372 442 bbg-swd.c:344 bbg_swd_write_reg(): OK AP write reg 4 = e0002000
Debug: 373 442 bbg-swd.c:256 bbg_swd_read_reg(): bbg_swd_read_reg
Debug: 374 444 bbg-swd.c:82 pru_request_cmd(): BBD-SWD: command execution (20009f06)
Debug: 375 446 bbg-swd.c:286 bbg_swd_read_reg(): OK AP read reg C = 00000000
Debug: 376 446 bbg-swd.c:256 bbg_swd_read_reg(): bbg_swd_read_reg
Debug: 377 448 bbg-swd.c:82 pru_request_cmd(): BBD-SWD: command execution (0000bd06)
Debug: 378 449 bbg-swd.c:286 bbg_swd_read_reg(): OK DP read reg C = 00000000
Debug: 379 450 bbg-swd.c:369 bbg_swd_run_queue(): bbg_swd_run_queue
Debug: 380 451 bbg-swd.c:80 pru_request_cmd(): BBD-SWD: command execution (00000004:00000008)
Debug: 381 453 bbg-swd.c:373 bbg_swd_run_queue(): SWD queue return value: 00
Debug: 382 453 target.c:2226 target_read_u32(): address: 0xe0002000, value: 0x00000000
Debug: 383 454 cortex_m.c:2005 cortex_m_examine(): FPB fpcr 0x0, numcode 0, numlit 0
Debug: 384 454 bbg-swd.c:316 bbg_swd_write_reg(): bbg_swd_write_reg
Debug: 385 456 bbg-swd.c:80 pru_request_cmd(): BBD-SWD: command execution (20008b07:e0001000)
Debug: 386 457 bbg-swd.c:344 bbg_swd_write_reg(): OK AP write reg 4 = e0001000
Debug: 387 458 bbg-swd.c:256 bbg_swd_read_reg(): bbg_swd_read_reg
Debug: 388 460 bbg-swd.c:82 pru_request_cmd(): BBD-SWD: command execution (20009f06)
Debug: 389 461 bbg-swd.c:286 bbg_swd_read_reg(): OK AP read reg C = 00000000
Debug: 390 462 bbg-swd.c:256 bbg_swd_read_reg(): bbg_swd_read_reg
Debug: 391 463 bbg-swd.c:82 pru_request_cmd(): BBD-SWD: command execution (0000bd06)
Debug: 392 465 bbg-swd.c:286 bbg_swd_read_reg(): OK DP read reg C = 00000000
Debug: 393 465 bbg-swd.c:369 bbg_swd_run_queue(): bbg_swd_run_queue
Debug: 394 467 bbg-swd.c:80 pru_request_cmd(): BBD-SWD: command execution (00000004:00000008)
Debug: 395 468 bbg-swd.c:373 bbg_swd_run_queue(): SWD queue return value: 00
Debug: 396 469 target.c:2226 target_read_u32(): address: 0xe0001000, value: 0x00000000
Debug: 397 469 cortex_m.c:1798 cortex_m_dwt_setup(): no DWT
Info : 398 470 cortex_m.c:2015 cortex_m_examine(): stm32f1x.cpu: hardware has 0 breakpoints, 0 watchpoints
Debug: 399 470 target.c:1501 target_call_event_callbacks(): target event 22 (examine-end)
Debug: 400 471 target.c:4256 target_handle_event(): target: (0) stm32f1x.cpu (cortex_m) event: 22 (examine-end) action: 
	# DBGMCU_CR |= DBG_WWDG_STOP | DBG_IWDG_STOP |
	#              DBG_STANDBY | DBG_STOP | DBG_SLEEP
	mmw 0xE0042004 0x00000307 0

Debug: 401 474 bbg-swd.c:316 bbg_swd_write_reg(): bbg_swd_write_reg
Debug: 402 476 bbg-swd.c:80 pru_request_cmd(): BBD-SWD: command execution (20008b07:e0042004)
Debug: 403 477 bbg-swd.c:344 bbg_swd_write_reg(): OK AP write reg 4 = e0042004
Debug: 404 478 bbg-swd.c:256 bbg_swd_read_reg(): bbg_swd_read_reg
Debug: 405 480 bbg-swd.c:82 pru_request_cmd(): BBD-SWD: command execution (20009f06)
Debug: 406 481 bbg-swd.c:286 bbg_swd_read_reg(): OK AP read reg C = 00000000
Debug: 407 481 bbg-swd.c:256 bbg_swd_read_reg(): bbg_swd_read_reg
Debug: 408 483 bbg-swd.c:82 pru_request_cmd(): BBD-SWD: command execution (0000bd06)
Debug: 409 484 bbg-swd.c:286 bbg_swd_read_reg(): OK DP read reg C = 00000000
Debug: 410 485 bbg-swd.c:369 bbg_swd_run_queue(): bbg_swd_run_queue
Debug: 411 487 bbg-swd.c:80 pru_request_cmd(): BBD-SWD: command execution (00000004:00000008)
Debug: 412 488 bbg-swd.c:373 bbg_swd_run_queue(): SWD queue return value: 00
Debug: 413 489 command.c:145 script_debug(): command - ocd_command ocd_command type ocd_mww 0xE0042004 775
Debug: 414 490 command.c:145 script_debug(): command - mww ocd_mww 0xE0042004 775
Debug: 415 490 bbg-swd.c:316 bbg_swd_write_reg(): bbg_swd_write_reg
Debug: 416 492 bbg-swd.c:80 pru_request_cmd(): BBD-SWD: command execution (2000a307:a2000002)
Debug: 417 494 bbg-swd.c:344 bbg_swd_write_reg(): OK AP write reg 0 = a2000002
Debug: 418 494 bbg-swd.c:316 bbg_swd_write_reg(): bbg_swd_write_reg
Debug: 419 496 bbg-swd.c:80 pru_request_cmd(): BBD-SWD: command execution (20018b07:e000edf0)
Debug: 420 497 bbg-swd.c:344 bbg_swd_write_reg(): OK AP write reg 4 = e000edf0
Debug: 421 498 bbg-swd.c:316 bbg_swd_write_reg(): bbg_swd_write_reg
Debug: 422 500 bbg-swd.c:80 pru_request_cmd(): BBD-SWD: command execution (0001b107:00000010)
Debug: 423 501 bbg-swd.c:344 bbg_swd_write_reg(): OK DP write reg 8 = 00000010
Debug: 424 501 bbg-swd.c:256 bbg_swd_read_reg(): bbg_swd_read_reg
Debug: 425 503 bbg-swd.c:82 pru_request_cmd(): BBD-SWD: command execution (20008706)
Debug: 426 504 bbg-swd.c:286 bbg_swd_read_reg(): OK AP read reg 0 = 01010001
Debug: 427 505 bbg-swd.c:256 bbg_swd_read_reg(): bbg_swd_read_reg
Debug: 428 507 bbg-swd.c:82 pru_request_cmd(): BBD-SWD: command execution (0000bd06)
Debug: 429 508 bbg-swd.c:286 bbg_swd_read_reg(): OK DP read reg C = 01010001
Debug: 430 509 bbg-swd.c:369 bbg_swd_run_queue(): bbg_swd_run_queue
Debug: 431 511 bbg-swd.c:80 pru_request_cmd(): BBD-SWD: command execution (00000004:00000008)
Debug: 432 512 bbg-swd.c:373 bbg_swd_run_queue(): SWD queue return value: 00
Debug: 434 513 bbg-swd.c:316 bbg_swd_write_reg(): bbg_swd_write_reg
Debug: 435 515 bbg-swd.c:80 pru_request_cmd(): BBD-SWD: command execution (0000b107:00000000)
Debug: 436 516 bbg-swd.c:344 bbg_swd_write_reg(): OK DP write reg 8 = 00000000
Debug: 437 517 bbg-swd.c:316 bbg_swd_write_reg(): bbg_swd_write_reg
Debug: 438 518 bbg-swd.c:80 pru_request_cmd(): BBD-SWD: command execution (20008b07:e0042004)
Debug: 439 520 bbg-swd.c:344 bbg_swd_write_reg(): OK AP write reg 4 = e0042004
Debug: 440 520 bbg-swd.c:316 bbg_swd_write_reg(): bbg_swd_write_reg
Debug: 441 522 bbg-swd.c:80 pru_request_cmd(): BBD-SWD: command execution (2001a307:a2000022)
Debug: 442 523 bbg-swd.c:344 bbg_swd_write_reg(): OK AP write reg 0 = a2000022
Debug: 443 524 bbg-swd.c:316 bbg_swd_write_reg(): bbg_swd_write_reg
Debug: 444 526 bbg-swd.c:80 pru_request_cmd(): BBD-SWD: command execution (2001bb07:00000307)
Debug: 445 527 bbg-swd.c:344 bbg_swd_write_reg(): OK AP write reg C = 00000307
Debug: 446 528 bbg-swd.c:369 bbg_swd_run_queue(): bbg_swd_run_queue
Debug: 447 529 bbg-swd.c:80 pru_request_cmd(): BBD-SWD: command execution (00000004:00000008)
Debug: 448 531 bbg-swd.c:373 bbg_swd_run_queue(): SWD queue return value: 00
Debug: 450 531 command.c:145 script_debug(): command - ocd_command ocd_command type ocd_flash init
Debug: 451 532 command.c:145 script_debug(): command - ocd_flash ocd_flash init
Debug: 452 533 bbg-swd.c:316 bbg_swd_write_reg(): bbg_swd_write_reg
Debug: 453 535 bbg-swd.c:80 pru_request_cmd(): BBD-SWD: command execution (2000a307:a2000002)
Debug: 454 536 bbg-swd.c:344 bbg_swd_write_reg(): OK AP write reg 0 = a2000002
Debug: 455 537 bbg-swd.c:316 bbg_swd_write_reg(): bbg_swd_write_reg
Debug: 456 538 bbg-swd.c:80 pru_request_cmd(): BBD-SWD: command execution (20018b07:e000edf0)
Debug: 457 540 bbg-swd.c:344 bbg_swd_write_reg(): OK AP write reg 4 = e000edf0
Debug: 458 540 bbg-swd.c:316 bbg_swd_write_reg(): bbg_swd_write_reg
Debug: 459 542 bbg-swd.c:80 pru_request_cmd(): BBD-SWD: command execution (0001b107:00000010)
Debug: 460 543 bbg-swd.c:344 bbg_swd_write_reg(): OK DP write reg 8 = 00000010
Debug: 461 544 bbg-swd.c:256 bbg_swd_read_reg(): bbg_swd_read_reg
Debug: 462 546 bbg-swd.c:82 pru_request_cmd(): BBD-SWD: command execution (20008706)
Debug: 463 547 bbg-swd.c:286 bbg_swd_read_reg(): OK AP read reg 0 = 01010001
Debug: 464 547 bbg-swd.c:256 bbg_swd_read_reg(): bbg_swd_read_reg
Debug: 465 549 bbg-swd.c:82 pru_request_cmd(): BBD-SWD: command execution (0000bd06)
Debug: 466 550 bbg-swd.c:286 bbg_swd_read_reg(): OK DP read reg C = 01010001
Debug: 467 551 bbg-swd.c:369 bbg_swd_run_queue(): bbg_swd_run_queue
Debug: 468 553 bbg-swd.c:80 pru_request_cmd(): BBD-SWD: command execution (00000004:00000008)
Debug: 469 554 bbg-swd.c:373 bbg_swd_run_queue(): SWD queue return value: 00
Debug: 471 555 tcl.c:1067 handle_flash_init_command(): Initializing flash devices...
Debug: 472 555 command.c:366 register_command_handler(): registering 'ocd_flash'...
Debug: 473 556 command.c:366 register_command_handler(): registering 'ocd_flash'...
Debug: 474 556 command.c:366 register_command_handler(): registering 'ocd_flash'...
Debug: 475 557 command.c:366 register_command_handler(): registering 'ocd_flash'...
Debug: 476 557 command.c:366 register_command_handler(): registering 'ocd_flash'...
Debug: 477 558 command.c:366 register_command_handler(): registering 'ocd_flash'...
Debug: 478 559 command.c:366 register_command_handler(): registering 'ocd_flash'...
Debug: 479 559 command.c:366 register_command_handler(): registering 'ocd_flash'...
Debug: 480 560 command.c:366 register_command_handler(): registering 'ocd_flash'...
Debug: 481 560 command.c:366 register_command_handler(): registering 'ocd_flash'...
Debug: 482 561 command.c:366 register_command_handler(): registering 'ocd_flash'...
Debug: 483 561 command.c:366 register_command_handler(): registering 'ocd_flash'...
Debug: 484 562 command.c:366 register_command_handler(): registering 'ocd_flash'...
Debug: 485 563 command.c:366 register_command_handler(): registering 'ocd_flash'...
Debug: 486 564 command.c:145 script_debug(): command - ocd_command ocd_command type ocd_mflash init
Debug: 487 565 command.c:145 script_debug(): command - ocd_mflash ocd_mflash init
Debug: 488 565 bbg-swd.c:256 bbg_swd_read_reg(): bbg_swd_read_reg
Debug: 489 567 bbg-swd.c:82 pru_request_cmd(): BBD-SWD: command execution (20008706)
Debug: 490 568 bbg-swd.c:286 bbg_swd_read_reg(): OK AP read reg 0 = 01010001
Debug: 491 569 bbg-swd.c:256 bbg_swd_read_reg(): bbg_swd_read_reg
Debug: 492 571 bbg-swd.c:82 pru_request_cmd(): BBD-SWD: command execution (0000bd06)
Debug: 493 572 bbg-swd.c:286 bbg_swd_read_reg(): OK DP read reg C = 01010001
Debug: 494 572 bbg-swd.c:369 bbg_swd_run_queue(): bbg_swd_run_queue
Debug: 495 574 bbg-swd.c:80 pru_request_cmd(): BBD-SWD: command execution (00000004:00000008)
Debug: 496 575 bbg-swd.c:373 bbg_swd_run_queue(): SWD queue return value: 00
Debug: 498 576 mflash.c:1379 handle_mflash_init_command(): Initializing mflash devices...
Debug: 499 577 command.c:145 script_debug(): command - ocd_command ocd_command type ocd_nand init
Debug: 500 577 command.c:145 script_debug(): command - ocd_nand ocd_nand init
Debug: 501 578 bbg-swd.c:256 bbg_swd_read_reg(): bbg_swd_read_reg
Debug: 502 580 bbg-swd.c:82 pru_request_cmd(): BBD-SWD: command execution (20008706)
Debug: 503 581 bbg-swd.c:286 bbg_swd_read_reg(): OK AP read reg 0 = 01010001
Debug: 504 582 bbg-swd.c:256 bbg_swd_read_reg(): bbg_swd_read_reg
Debug: 505 584 bbg-swd.c:82 pru_request_cmd(): BBD-SWD: command execution (0000bd06)
Debug: 506 585 bbg-swd.c:286 bbg_swd_read_reg(): OK DP read reg C = 01010001
Debug: 507 585 bbg-swd.c:369 bbg_swd_run_queue(): bbg_swd_run_queue
Debug: 508 587 bbg-swd.c:80 pru_request_cmd(): BBD-SWD: command execution (00000004:00000008)
Debug: 509 588 bbg-swd.c:373 bbg_swd_run_queue(): SWD queue return value: 00
Debug: 511 589 tcl.c:497 handle_nand_init_command(): Initializing NAND devices...
Debug: 512 589 command.c:145 script_debug(): command - ocd_command ocd_command type ocd_pld init
Debug: 513 590 command.c:145 script_debug(): command - ocd_pld ocd_pld init
Debug: 514 591 bbg-swd.c:256 bbg_swd_read_reg(): bbg_swd_read_reg
Debug: 515 593 bbg-swd.c:82 pru_request_cmd(): BBD-SWD: command execution (20008706)
Debug: 516 594 bbg-swd.c:286 bbg_swd_read_reg(): OK AP read reg 0 = 01010001
Debug: 517 595 bbg-swd.c:256 bbg_swd_read_reg(): bbg_swd_read_reg
Debug: 518 596 bbg-swd.c:82 pru_request_cmd(): BBD-SWD: command execution (0000bd06)
Debug: 519 598 bbg-swd.c:286 bbg_swd_read_reg(): OK DP read reg C = 01010001
Debug: 520 598 bbg-swd.c:369 bbg_swd_run_queue(): bbg_swd_run_queue
Debug: 521 600 bbg-swd.c:80 pru_request_cmd(): BBD-SWD: command execution (00000004:00000008)
Debug: 522 601 bbg-swd.c:373 bbg_swd_run_queue(): SWD queue return value: 00
Debug: 524 602 pld.c:207 handle_pld_init_command(): Initializing PLDs...
Debug: 525 703 bbg-swd.c:256 bbg_swd_read_reg(): bbg_swd_read_reg
Debug: 526 705 bbg-swd.c:82 pru_request_cmd(): BBD-SWD: command execution (20008706)
Debug: 527 706 bbg-swd.c:286 bbg_swd_read_reg(): OK AP read reg 0 = 01010001
Debug: 528 706 bbg-swd.c:256 bbg_swd_read_reg(): bbg_swd_read_reg
Debug: 529 708 bbg-swd.c:82 pru_request_cmd(): BBD-SWD: command execution (0000bd06)
Debug: 530 709 bbg-swd.c:286 bbg_swd_read_reg(): OK DP read reg C = 01010001
Debug: 531 710 bbg-swd.c:369 bbg_swd_run_queue(): bbg_swd_run_queue
Debug: 532 712 bbg-swd.c:80 pru_request_cmd(): BBD-SWD: command execution (00000004:00000008)
Debug: 533 713 bbg-swd.c:373 bbg_swd_run_queue(): SWD queue return value: 00
Debug: 534 814 bbg-swd.c:256 bbg_swd_read_reg(): bbg_swd_read_reg
Debug: 535 815 bbg-swd.c:82 pru_request_cmd(): BBD-SWD: command execution (20008706)
Debug: 536 817 bbg-swd.c:286 bbg_swd_read_reg(): OK AP read reg 0 = 01010001
Debug: 537 817 bbg-swd.c:256 bbg_swd_read_reg(): bbg_swd_read_reg
Debug: 538 819 bbg-swd.c:82 pru_request_cmd(): BBD-SWD: command execution (0000bd06)
Debug: 539 820 bbg-swd.c:286 bbg_swd_read_reg(): OK DP read reg C = 01010001
Debug: 540 821 bbg-swd.c:369 bbg_swd_run_queue(): bbg_swd_run_queue
Debug: 541 823 bbg-swd.c:80 pru_request_cmd(): BBD-SWD: command execution (00000004:00000008)
Debug: 542 824 bbg-swd.c:373 bbg_swd_run_queue(): SWD queue return value: 00
Debug: 543 925 bbg-swd.c:256 bbg_swd_read_reg(): bbg_swd_read_reg
Debug: 544 926 bbg-swd.c:82 pru_request_cmd(): BBD-SWD: command execution (20008706)
Debug: 545 928 bbg-swd.c:286 bbg_swd_read_reg(): OK AP read reg 0 = 01010001
Debug: 546 928 bbg-swd.c:256 bbg_swd_read_reg(): bbg_swd_read_reg
Debug: 547 930 bbg-swd.c:82 pru_request_cmd(): BBD-SWD: command execution (0000bd06)
Debug: 548 931 bbg-swd.c:286 bbg_swd_read_reg(): OK DP read reg C = 01010001
Debug: 549 932 bbg-swd.c:369 bbg_swd_run_queue(): bbg_swd_run_queue
Debug: 550 938 bbg-swd.c:80 pru_request_cmd(): BBD-SWD: command execution (00000004:00000008)
Debug: 551 942 bbg-swd.c:373 bbg_swd_run_queue(): SWD queue return value: 00
Debug: 552 1043 bbg-swd.c:256 bbg_swd_read_reg(): bbg_swd_read_reg
Debug: 553 1048 bbg-swd.c:82 pru_request_cmd(): BBD-SWD: command execution (20008706)
Debug: 554 1051 bbg-swd.c:286 bbg_swd_read_reg(): OK AP read reg 0 = 01010001
Debug: 555 1053 bbg-swd.c:256 bbg_swd_read_reg(): bbg_swd_read_reg
Debug: 556 1058 bbg-swd.c:82 pru_request_cmd(): BBD-SWD: command execution (0000bd06)
Debug: 557 1061 bbg-swd.c:286 bbg_swd_read_reg(): OK DP read reg C = 01010001
Debug: 558 1062 bbg-swd.c:369 bbg_swd_run_queue(): bbg_swd_run_queue
Debug: 559 1067 bbg-swd.c:80 pru_request_cmd(): BBD-SWD: command execution (00000004:00000008)
Debug: 560 1070 bbg-swd.c:373 bbg_swd_run_queue(): SWD queue return value: 00
Debug: 561 1172 bbg-swd.c:256 bbg_swd_read_reg(): bbg_swd_read_reg
Debug: 562 1176 bbg-swd.c:82 pru_request_cmd(): BBD-SWD: command execution (20008706)
Debug: 563 1179 bbg-swd.c:286 bbg_swd_read_reg(): OK AP read reg 0 = 01010001
Debug: 564 1180 bbg-swd.c:256 bbg_swd_read_reg(): bbg_swd_read_reg
Debug: 565 1186 bbg-swd.c:82 pru_request_cmd(): BBD-SWD: command execution (0000bd06)
Debug: 566 1189 bbg-swd.c:286 bbg_swd_read_reg(): OK DP read reg C = 01010001
Debug: 567 1190 bbg-swd.c:369 bbg_swd_run_queue(): bbg_swd_run_queue
Debug: 568 1195 bbg-swd.c:80 pru_request_cmd(): BBD-SWD: command execution (00000004:00000008)
Debug: 569 1198 bbg-swd.c:373 bbg_swd_run_queue(): SWD queue return value: 00
Debug: 570 1300 bbg-swd.c:256 bbg_swd_read_reg(): bbg_swd_read_reg
Debug: 571 1305 bbg-swd.c:82 pru_request_cmd(): BBD-SWD: command execution (20008706)
Debug: 572 1308 bbg-swd.c:286 bbg_swd_read_reg(): OK AP read reg 0 = 01010001
Debug: 573 1309 bbg-swd.c:256 bbg_swd_read_reg(): bbg_swd_read_reg
Debug: 574 1314 bbg-swd.c:82 pru_request_cmd(): BBD-SWD: command execution (0000bd06)
Debug: 575 1317 bbg-swd.c:286 bbg_swd_read_reg(): OK DP read reg C = 01010001
Debug: 576 1318 bbg-swd.c:369 bbg_swd_run_queue(): bbg_swd_run_queue
Debug: 577 1324 bbg-swd.c:80 pru_request_cmd(): BBD-SWD: command execution (00000004:00000008)
Debug: 578 1327 bbg-swd.c:373 bbg_swd_run_queue(): SWD queue return value: 00
Debug: 579 1428 bbg-swd.c:256 bbg_swd_read_reg(): bbg_swd_read_reg
Debug: 580 1433 bbg-swd.c:82 pru_request_cmd(): BBD-SWD: command execution (20008706)
Debug: 581 1436 bbg-swd.c:286 bbg_swd_read_reg(): OK AP read reg 0 = 01010001
Debug: 582 1437 bbg-swd.c:256 bbg_swd_read_reg(): bbg_swd_read_reg
Debug: 583 1442 bbg-swd.c:82 pru_request_cmd(): BBD-SWD: command execution (0000bd06)
Debug: 584 1445 bbg-swd.c:286 bbg_swd_read_reg(): OK DP read reg C = 01010001
Debug: 585 1447 bbg-swd.c:369 bbg_swd_run_queue(): bbg_swd_run_queue
Debug: 586 1452 bbg-swd.c:80 pru_request_cmd(): BBD-SWD: command execution (00000004:00000008)
Debug: 587 1455 bbg-swd.c:373 bbg_swd_run_queue(): SWD queue return value: 00
Debug: 588 1556 bbg-swd.c:256 bbg_swd_read_reg(): bbg_swd_read_reg
Debug: 589 1561 bbg-swd.c:82 pru_request_cmd(): BBD-SWD: command execution (20008706)
Debug: 590 1565 bbg-swd.c:286 bbg_swd_read_reg(): OK AP read reg 0 = 01010001
Debug: 591 1566 bbg-swd.c:256 bbg_swd_read_reg(): bbg_swd_read_reg
Debug: 592 1571 bbg-swd.c:82 pru_request_cmd(): BBD-SWD: command execution (0000bd06)
Debug: 593 1574 bbg-swd.c:286 bbg_swd_read_reg(): OK DP read reg C = 01010001
Debug: 594 1576 bbg-swd.c:369 bbg_swd_run_queue(): bbg_swd_run_queue
Debug: 595 1581 bbg-swd.c:80 pru_request_cmd(): BBD-SWD: command execution (00000004:00000008)
Debug: 596 1584 bbg-swd.c:373 bbg_swd_run_queue(): SWD queue return value: 00
Debug: 597 1685 bbg-swd.c:256 bbg_swd_read_reg(): bbg_swd_read_reg
Debug: 598 1690 bbg-swd.c:82 pru_request_cmd(): BBD-SWD: command execution (20008706)
Debug: 599 1693 bbg-swd.c:286 bbg_swd_read_reg(): OK AP read reg 0 = 01010001
Debug: 600 1694 bbg-swd.c:256 bbg_swd_read_reg(): bbg_swd_read_reg
Debug: 601 1700 bbg-swd.c:82 pru_request_cmd(): BBD-SWD: command execution (0000bd06)
Debug: 602 1703 bbg-swd.c:286 bbg_swd_read_reg(): OK DP read reg C = 01010001
Debug: 603 1704 bbg-swd.c:369 bbg_swd_run_queue(): bbg_swd_run_queue
Debug: 604 1709 bbg-swd.c:80 pru_request_cmd(): BBD-SWD: command execution (00000004:00000008)
Debug: 605 1712 bbg-swd.c:373 bbg_swd_run_queue(): SWD queue return value: 00
Debug: 606 1814 bbg-swd.c:256 bbg_swd_read_reg(): bbg_swd_read_reg
Debug: 607 1818 bbg-swd.c:82 pru_request_cmd(): BBD-SWD: command execution (20008706)
Debug: 608 1821 bbg-swd.c:286 bbg_swd_read_reg(): OK AP read reg 0 = 01010001
